Circuit: * C:\users\akash\Desktop\ActiveFiltersPractice\Draft2.asc

WARNING: Node NC_01 is floating.
WARNING: Node NC_02 is floating.

Instance "m2": Length shorter than recommended for a level 1 MOSFET.
Instance "m1": Length shorter than recommended for a level 1 MOSFET.
Direct Newton iteration failed to find .op point.  (Use ".option noopiter" to skip.)
Starting Gmin stepping
Gmin = 10
Gmin = 1.07374
Gmin = 0.115292
Gmin = 0.0123794
Gmin = 0.00132923
Gmin = 0.000142725
Gmin = 1.5325e-005
Gmin = 1.6455e-006
Gmin = 1.76685e-007
Gmin = 1.89714e-008
Gmin = 2.03704e-009
Gmin = 2.18725e-010
Gmin = 2.34854e-011
Gmin = 2.52173e-012
Gmin = 2.70769e-013
Gmin = 0
Gmin stepping succeeded in finding the operating point.

Semiconductor Device Operating Points:
                        --- MOSFET Transistors ---
Name:          m2          m1
Model:        nmos        nmos
Id:          1.00e-04    1.00e-04
Vgs:         1.15e+00    1.15e+00
Vds:         3.15e-02    3.15e-02
Vbs:        -1.49e-01   -1.49e-01
Vth:         5.00e-01    5.00e-01
Vdsat:       6.50e-01    6.50e-01
Gm:          1.58e-04    1.58e-04
Gds:         3.09e-03    3.09e-03
Gmb:         0.00e+00    0.00e+00
Cbd:         0.00e+00    0.00e+00
Cbs:         0.00e+00    0.00e+00
Cgsov:       0.00e+00    0.00e+00
Cgdov:       0.00e+00    0.00e+00
Cgbov:       0.00e+00    0.00e+00
Cgs:         0.00e+00    0.00e+00
Cgd:         0.00e+00    0.00e+00
Cgb:         0.00e+00    0.00e+00



Date: Sat Oct 29 12:10:22 2022
Total elapsed time: 0.087 seconds.

tnom = 27
temp = 27
method = trap
totiter = 370
traniter = 0
tranpoints = 0
accept = 0
rejected = 0
matrix size = 11
fillins = 0
solver = Normal
Matrix Compiler1: 610 bytes object code size
Matrix Compiler2: 963 bytes object code size  0.1/0.2/[0.1]

