Circuit: * C:\users\akash\Desktop\ActiveFiltersPractice\Project\Final_Transconductor.asc

Ignoring BSIM parameter XL
Ignoring BSIM parameter XW
Ignoring BSIM parameter XL
Ignoring BSIM parameter XW
Warning: Pd = 0 is less than W.
Warning: Ps = 0 is less than W.
Warning: Pd = 0 is less than W.
Warning: Ps = 0 is less than W.
Warning: Pd = 0 is less than W.
Warning: Ps = 0 is less than W.
Direct Newton iteration for .op point succeeded.
Semiconductor Device Operating Points:
                        --- BSIM3 MOSFETS ---
Name:        m5          m4          m3          m2          m1
Model:     tsmc35p     tsmc35p     tsmc35n     tsmc35n     tsmc35n
Id:        1.04e-04    1.04e-04    2.08e-04    1.04e-04    1.04e-04
Vgs:      -8.39e-05   -8.39e-05    1.00e+00    8.21e-01    8.21e-01
Vds:       1.65e+00    1.65e+00    8.29e-01    8.21e-01    8.21e-01
Vbs:       1.65e+00    1.65e+00    0.00e+00    0.00e+00    0.00e+00
Vth:      -8.05e-01   -8.05e-01    7.53e-01    7.51e-01    7.51e-01
Vdsat:    -6.45e-01   -6.45e-01    1.86e-01    7.86e-02    7.86e-02
Gm:        2.03e-04    2.03e-04    1.80e-03    1.71e-03    1.71e-03
Gds:       6.20e-06    6.20e-06    3.25e-05    2.60e-05    2.60e-05
Gmb        3.73e-05    3.73e-05    4.47e-04    4.49e-04    4.49e-04
Cbd:       0.00e+00    0.00e+00    0.00e+00    0.00e+00    0.00e+00
Cbs:       0.00e+00    0.00e+00    0.00e+00    0.00e+00    0.00e+00
Cgsov:     7.31e-16    7.31e-16    6.65e-15    3.05e-14    3.05e-14
Cgdov:     7.31e-16    7.31e-16    6.65e-15    3.05e-14    3.05e-14
Cgbov:     1.00e-16    1.00e-16    9.06e-17    9.06e-17    9.06e-17
dQgdVgb:   7.66e-15    7.66e-15    5.19e-14    2.15e-13    2.15e-13
dQgdVdb:  -6.71e-16   -6.71e-16   -6.44e-15   -2.97e-14   -2.97e-14
dQgdVsb:  -6.63e-15   -6.63e-15   -4.15e-14   -1.59e-13   -1.59e-13
dQddVgb:  -3.24e-15   -3.24e-15   -2.23e-14   -8.87e-14   -8.87e-14
dQddVdb:   6.99e-16    6.99e-16    6.53e-15    3.00e-14    3.00e-14
dQddVsb:   3.09e-15    3.09e-15    2.04e-14    7.63e-14    7.63e-14
dQbdVgb:  -1.17e-15   -1.17e-15   -7.28e-15   -3.72e-14   -3.72e-14
dQbdVdb:   4.04e-18    4.04e-18    3.43e-17    1.52e-16    1.52e-16
dQbdVsb:  -2.74e-16   -2.74e-16   -6.04e-15   -2.41e-14   -2.41e-14



Date: Thu Nov 03 14:36:23 2022
Total elapsed time: 0.069 seconds.

tnom = 27
temp = 27
method = trap
totiter = 24
traniter = 0
tranpoints = 0
accept = 0
rejected = 0
matrix size = 11
fillins = 2
solver = Normal
Matrix Compiler1: 610 bytes object code size
Matrix Compiler2: 963 bytes object code size
