Circuit: * C:\users\akash\Desktop\ActiveFiltersPractice\Project\Transconductor_Bias_Width_Calculation.asc

Ignoring BSIM parameter XL
Ignoring BSIM parameter XW
Ignoring BSIM parameter XL
Ignoring BSIM parameter XW
Warning: Pd = 0 is less than W.
Warning: Ps = 0 is less than W.
Warning: Pd = 0 is less than W.
Warning: Ps = 0 is less than W.
Warning: Pd = 0 is less than W.
Warning: Ps = 0 is less than W.
Direct Newton iteration for .op point succeeded.
Semiconductor Device Operating Points:
                        --- BSIM3 MOSFETS ---
Name:        m3          m2          m1
Model:     tsmc35p     tsmc35n     tsmc35n
Id:        1.03e-04    2.00e-04    1.00e-04
Vgs:       0.00e+00    1.00e+00    8.20e-01
Vds:       1.65e+00    8.30e-01    8.20e-01
Vbs:       1.65e+00    0.00e+00    0.00e+00
Vth:      -7.97e-01    7.53e-01    7.49e-01
Vdsat:    -6.57e-01    1.87e-01    7.90e-02
Gm:        1.98e-04    1.74e-03    1.65e-03
Gds:       6.16e-06    3.13e-05    2.49e-05
Gmb        3.63e-05    4.31e-04    4.31e-04
Cbd:       0.00e+00    0.00e+00    0.00e+00
Cbs:       0.00e+00    0.00e+00    0.00e+00
Cgsov:     7.05e-16    6.39e-15    2.90e-14
Cgdov:     7.05e-16    6.39e-15    2.90e-14
Cgbov:     5.00e-17    4.53e-17    4.53e-17
dQgdVgb:   7.32e-15    4.98e-14    2.04e-13
dQgdVdb:  -6.47e-16   -6.19e-15   -2.82e-14
dQgdVsb:  -6.36e-15   -3.97e-14   -1.51e-13
dQddVgb:  -3.13e-15   -2.14e-14   -8.44e-14
dQddVdb:   6.74e-16    6.27e-15    2.85e-14
dQddVsb:   2.97e-15    1.96e-14    7.26e-14
dQbdVgb:  -1.07e-15   -6.89e-15   -3.51e-14
dQbdVdb:   4.12e-18    3.36e-17    1.45e-16
dQbdVsb:  -2.90e-16   -5.89e-15   -2.31e-14



Date: Tue Nov 01 17:51:12 2022
Total elapsed time: 0.069 seconds.

tnom = 27
temp = 27
method = trap
totiter = 5
traniter = 0
tranpoints = 0
accept = 0
rejected = 0
matrix size = 16
fillins = 0
solver = Normal
Matrix Compiler1: 610 bytes object code size
Matrix Compiler2: 936 bytes object code size
